
T127C 000:035 SEGGER J-Link V4.68 Log File (0001ms, 0036ms total)
T127C 000:035 DLL Compiled: Apr  6 2013 00:10:46 (0001ms, 0036ms total)
T127C 000:035 Logging started @ 2016-04-25 10:55 (0001ms, 0036ms total)
T127C 000:036 JLINK_SetWarnOutHandler(...) (0000ms, 0036ms total)
T127C 000:036 JLINK_OpenEx(...)
Firmware: J-Link ARM-OB STM32 compiled Aug 22 2012 19:52:04
Hardware: V7.00
S/N: 20090928
Feature(s): RDI,FlashDL,FlashBP,JFlash,GDBFull  returns O.K. (0013ms, 0049ms total)
T127C 000:049 JLINK_SetErrorOutHandler(...) (0000ms, 0049ms total)
T127C 000:049 JLINK_ExecCommand("ProjectFile = "G:\俄罗斯方块\工程模板 - 副本\Project\RVMDK（uv4）\JLinkSettings.ini"", ...)  returns 0x00 (0001ms, 0050ms total)
T127C 000:051 JLINK_ExecCommand("Device = STM32F103ZE", ...)
                JLINK_AddMirrorAreaEx(Addr = 0x00000000, Size = 0x00000000) (0000ms, 0000ms total)
              Device "STM32F103ZE" selected (512 KB flash, 64 KB RAM).  returns 0x00 (0009ms, 0059ms total)
T127C 000:060 JLINK_ExecCommand("DisableConnectionTimeout", ...)  returns 0x00 (0000ms, 0059ms total)
T127C 000:060 JLINK_GetHardwareVersion()  returns 0x11170 (0000ms, 0059ms total)
T127C 000:060 JLINK_GetDLLVersion()  returns 46800 (0000ms, 0059ms total)
T127C 000:060 JLINK_GetFirmwareString(...) (0000ms, 0059ms total)
T127C 000:071 JLINK_GetDLLVersion()  returns 46800 (0000ms, 0059ms total)
T127C 000:071 JLINK_GetCompileDateTime() (0000ms, 0059ms total)
T127C 000:073 JLINK_GetFirmwareString(...) (0000ms, 0059ms total)
T127C 000:076 JLINK_GetHardwareVersion()  returns 0x11170 (0000ms, 0060ms total)
T127C 000:084 JLINK_TIF_Select(JLINKARM_TIF_SWD)  returns 0x00 (0002ms, 0062ms total)
T127C 000:086 JLINK_SetSpeed(2000) (0000ms, 0062ms total)
T127C 000:086 JLINK_GetId() >0x108 TIF>Found SWD-DP with ID 0x1BA01477 >0x0D TIF> >0x28 TIF> >0x0D TIF> >0x28 TIF> >0x0D TIF> >0x21 TIF> >0x0D TIF> >0x28 TIF> >0x0D TIF> >0x28 TIF> >0x0D TIF> >0x28 TIF> >0x0D TIF> >0x21 TIF> >0x0D TIF> >0x21 TIF> >0x0D TIF> >0x28 TIF> >0x0D TIF> >0x21 TIF> >0x0D TIF> >0x21 TIF> >0x108 TIF>Found SWD-DP with ID 0x1BA01477 >0x0D TIF> >0x21 TIF> >0x0D TIF> >0x28 TIF> >0x0D TIF> >0x28 TIF> >0x0D TIF> >0x21 TIF> >0x0D TIF> >0x21 TIF> >0x0D TIF> >0x28 TIF> >0x0D TIF> >0x21 TIF>
 >0x0D TIF> >0x21 TIF> >0x0D TIF> >0x21 TIF> >0x0D TIF> >0x21 TIF> >0x0D TIF> >0x21 TIF> >0x0D TIF> >0x28 TIF> >0x0D TIF> >0x28 TIF> >0x0D TIF> >0x21 TIF> >0x0D TIF> >0x21 TIF> >0x0D TIF> >0x28 TIF> >0x0D TIF> >0x21 TIF> >0x0D TIF> >0x21 TIF> >0x0D TIF> >0x28 TIF> >0x0D TIF> >0x28 TIF> >0x0D TIF> >0x28 TIF> >0x0D TIF> >0x21 TIF> >0x0D TIF> >0x21 TIF> >0x0D TIF> >0x28 TIF> >0x0D TIF> >0x28 TIF> >0x0D TIF> >0x28 TIF> >0x0D TIF> >0x21 TIF> >0x0D TIF> >0x21 TIF> >0x0D TIF> >0x21 TIF>TPIU fitted.ETM fitted.
 >0x0D TIF> >0x28 TIF> >0x0D TIF> >0x21 TIF> >0x0D TIF> >0x21 TIF> >0x0D TIF> >0x28 TIF> >0x0D TIF> >0x21 TIF> >0x0D TIF> >0x21 TIF>FPUnit: 6 code (BP) slots and 2 literal slots >0x0D TIF> >0x28 TIF> >0x0D TIF> >0x21 TIF> >0x0D TIF> >0x21 TIF> >0x0D TIF> >0x28 TIF> >0x0D TIF> >0x21 TIF> >0x0D TIF> >0x21 TIF> >0x0D TIF> >0x28 TIF> >0x0D TIF> >0x21 TIF> >0x0D TIF> >0x21 TIF> >0x0D TIF> >0x28 TIF> >0x0D TIF> >0x21 TIF> >0x0D TIF> >0x21 TIF>Found Cortex-M3 r1p1, Little endian. >0x0D TIF> >0x21 TIF>
  returns 0x1BA01477 (0061ms, 0123ms total)
T127C 000:147 JLINK_GetDeviceFamily()  returns 3 (0000ms, 0123ms total)
T127C 000:150 JLINK_ReadMem (0xE00FFFF0, 0x0010 Bytes, ...) -- CPU is running -- CPU_ReadMem(16 bytes @ 0xE00FFFF0) -- Data:  0D 00 00 00 10 00 00 00 05 00 00 00 B1 00 00 00  returns 0x00 (0001ms, 0124ms total)
T127C 000:151 JLINK_ReadMem (0xE00FFFD0, 0x0020 Bytes, ...) -- CPU is running -- CPU_ReadMem(32 bytes @ 0xE00FFFD0) -- Data:  00 00 00 00 00 00 00 00 00 00 00 00 00 00 00 00 ...  returns 0x00 (0001ms, 0125ms total)
T127C 000:152 JLINK_ReadMem (0xE00FF000, 0x0018 Bytes, ...) -- CPU is running -- CPU_ReadMem(24 bytes @ 0xE00FF000) -- Data:  03 F0 F0 FF 03 20 F0 FF 03 30 F0 FF 03 10 F0 FF ...  returns 0x00 (0001ms, 0126ms total)
T127C 000:153 JLINK_ReadMemU32(0xE000ED00, 0x0001 Items, ...) -- CPU is running -- CPU_ReadMem(4 bytes @ 0xE000ED00) -- Data:  31 C2 1F 41  returns 0x01 (0001ms, 0127ms total)
T127C 000:154 JLINK_SetResetType(JLINKARM_RESET_TYPE_NORMAL)  returns JLINKARM_RESET_TYPE_NORMAL (0000ms, 0127ms total)
T127C 000:154 JLINK_Reset() -- CPU is running -- CPU_WriteMem(4 bytes @ 0xE000EDF0) -- CPU is running -- CPU_WriteMem(4 bytes @ 0xE000EDFC) >0x35 TIF> -- CPU is running -- CPU_WriteMem(4 bytes @ 0xE000ED0C) -- CPU is running -- CPU_ReadMem(4 bytes @ 0xE000EDF0) -- CPU is running -- CPU_ReadMem(4 bytes @ 0xE000EDF0) -- CPU is running -- CPU_WriteMem(4 bytes @ 0xE000EDF0) -- CPU is running -- CPU_WriteMem(4 bytes @ 0xE000EDFC) -- CPU is running -- CPU_ReadMem(4 bytes @ 0xE000EDF0)
 -- CPU_WriteMem(4 bytes @ 0xE0002000) (0019ms, 0146ms total)
T127C 000:173 JLINK_Halt()  returns 0x00 (0000ms, 0146ms total)
T127C 000:173 JLINK_IsHalted()  returns TRUE (0000ms, 0146ms total)
T127C 000:173 JLINK_ReadMemU32(0xE000EDF0, 0x0001 Items, ...) -- CPU_ReadMem(4 bytes @ 0xE000EDF0) -- Data:  03 00 03 00  returns 0x01 (0000ms, 0146ms total)
T127C 000:173 JLINK_WriteU32(0xE000EDF0, 0xA05F0003) -- CPU_WriteMem(4 bytes @ 0xE000EDF0)  returns 0x00 (0001ms, 0147ms total)
T127C 000:174 JLINK_WriteU32(0xE000EDFC, 0x01000000) -- CPU_WriteMem(4 bytes @ 0xE000EDFC)  returns 0x00 (0001ms, 0148ms total)
T127C 000:185 JLINK_GetHWStatus(...)  returns 0x00 (0001ms, 0149ms total)
T127C 000:192 JLINK_GetNumBPUnits(Type = 0xFFFFFF00)  returns 0x06 (0000ms, 0149ms total)
T127C 000:192 JLINK_GetNumBPUnits(Type = 0xF0)  returns 0x2000 (0000ms, 0149ms total)
T127C 000:192 JLINK_GetNumWPUnits()  returns 0x04 (0000ms, 0149ms total)
T127C 000:198 JLINK_GetSpeed()  returns 0x7D0 (0000ms, 0149ms total)
T127C 000:202 JLINK_ReadMemU32(0xE000E004, 0x0001 Items, ...) -- CPU_ReadMem(4 bytes @ 0xE000E004) -- Data:  01 00 00 00  returns 0x01 (0001ms, 0150ms total)
T127C 000:203 JLINK_ReadMemU32(0xE000E004, 0x0001 Items, ...) -- CPU_ReadMem(4 bytes @ 0xE000E004) -- Data:  01 00 00 00  returns 0x01 (0001ms, 0151ms total)
T127C 000:204 JLINK_WriteMem(0xE0001000, 0x001C Bytes, ...) -- Data:  01 00 00 00 00 00 00 00 00 00 00 00 00 00 00 00 ... -- CPU_WriteMem(28 bytes @ 0xE0001000)  returns 0x1C (0001ms, 0152ms total)
T127C 000:205 JLINK_ReadMem (0xE0001000, 0x001C Bytes, ...) -- CPU_ReadMem(28 bytes @ 0xE0001000) -- Data:  01 00 00 40 00 00 00 00 00 00 00 00 00 00 00 00 ...  returns 0x00 (0001ms, 0153ms total)
T127C 000:206 JLINK_Halt()  returns 0x00 (0000ms, 0153ms total)
T127C 000:206 JLINK_IsHalted()  returns TRUE (0000ms, 0153ms total)
T127C 000:208 JLINK_WriteMem(0x20000000, 0x0164 Bytes, ...) -- Data:  00 BE 0A E0 0D 78 2D 06 68 40 08 24 40 00 00 D3 ... -- CPU_WriteMem(356 bytes @ 0x20000000)  returns 0x164 (0005ms, 0158ms total)
T127C 000:213 JLINK_WriteReg(R0, 0x08000000)  returns 0x00 (0000ms, 0158ms total)
T127C 000:213 JLINK_WriteReg(R1, 0x007A1200)  returns 0x00 (0000ms, 0158ms total)
T127C 000:213 JLINK_WriteReg(R2, 0x00000001)  returns 0x00 (0000ms, 0158ms total)
T127C 000:213 JLINK_WriteReg(R3, 0x00000000)  returns 0x00 (0000ms, 0158ms total)
T127C 000:213 JLINK_WriteReg(R4, 0x00000000)  returns 0x00 (0000ms, 0158ms total)
T127C 000:213 JLINK_WriteReg(R5, 0x00000000)  returns 0x00 (0000ms, 0158ms total)
T127C 000:213 JLINK_WriteReg(R6, 0x00000000)  returns 0x00 (0000ms, 0158ms total)
T127C 000:213 JLINK_WriteReg(R7, 0x00000000)  returns 0x00 (0000ms, 0158ms total)
T127C 000:213 JLINK_WriteReg(R8, 0x00000000)  returns 0x00 (0000ms, 0158ms total)
T127C 000:213 JLINK_WriteReg(R9, 0x20000160)  returns 0x00 (0000ms, 0158ms total)
T127C 000:213 JLINK_WriteReg(R10, 0x00000000)  returns 0x00 (0000ms, 0158ms total)
T127C 000:213 JLINK_WriteReg(R11, 0x00000000)  returns 0x00 (0000ms, 0158ms total)
T127C 000:213 JLINK_WriteReg(R12, 0x00000000)  returns 0x00 (0000ms, 0158ms total)
T127C 000:213 JLINK_WriteReg(R13, 0x20000800)  returns 0x00 (0000ms, 0158ms total)
T127C 000:213 JLINK_WriteReg(R14, 0x20000001)  returns 0x00 (0000ms, 0158ms total)
T127C 000:213 JLINK_WriteReg(R15, 0x20000038)  returns 0x00 (0000ms, 0158ms total)
T127C 000:213 JLINK_WriteReg(XPSR, 0x01000000)  returns 0x00 (0000ms, 0158ms total)
T127C 000:213 JLINK_WriteReg(MSP, 0x20000800)  returns 0x00 (0000ms, 0158ms total)
T127C 000:213 JLINK_WriteReg(PSP, 0x20000800)  returns 0x00 (0000ms, 0158ms total)
T127C 000:213 JLINK_WriteReg(CFBP, 0x00000000)  returns 0x00 (0000ms, 0158ms total)
T127C 000:213 JLINK_SetBPEx(Addr = 0x20000000, Type = 0xFFFFFFF2) -- CPU_ReadMem(2 bytes @ 0x20000000)  returns 0x00000001 (0001ms, 0159ms total)
T127C 000:214 JLINK_Go() -- CPU_WriteMem(2 bytes @ 0x20000000) -- CPU_WriteMem(4 bytes @ 0xE0002008) -- CPU_WriteMem(4 bytes @ 0xE000200C) -- CPU_WriteMem(4 bytes @ 0xE0002010) -- CPU_WriteMem(4 bytes @ 0xE0002014) -- CPU_WriteMem(4 bytes @ 0xE0002018) -- CPU_WriteMem(4 bytes @ 0xE000201C) (0009ms, 0168ms total)
T127C 000:223 JLINK_IsHalted() -- CPU_ReadMem(2 bytes @ 0x20000000)  returns TRUE (0004ms, 0172ms total)
T127C 000:227 JLINK_ReadReg(R15)  returns 0x20000000 (0000ms, 0168ms total)
T127C 000:227 JLINK_ClrBPEx(BPHandle = 0x00000001)  returns 0x00 (0000ms, 0168ms total)
T127C 000:227 JLINK_ReadReg(R0)  returns 0x00000000 (0000ms, 0168ms total)
T127C 000:227 JLINK_WriteReg(R0, 0x08000000)  returns 0x00 (0000ms, 0168ms total)
T127C 000:227 JLINK_WriteReg(R1, 0x007A1200)  returns 0x00 (0000ms, 0168ms total)
T127C 000:227 JLINK_WriteReg(R2, 0x00000001)  returns 0x00 (0000ms, 0168ms total)
T127C 000:227 JLINK_WriteReg(R3, 0x00000000)  returns 0x00 (0000ms, 0168ms total)
T127C 000:227 JLINK_WriteReg(R4, 0x00000000)  returns 0x00 (0000ms, 0168ms total)
T127C 000:227 JLINK_WriteReg(R5, 0x00000000)  returns 0x00 (0000ms, 0168ms total)
T127C 000:227 JLINK_WriteReg(R6, 0x00000000)  returns 0x00 (0000ms, 0168ms total)
T127C 000:227 JLINK_WriteReg(R7, 0x00000000)  returns 0x00 (0000ms, 0168ms total)
T127C 000:227 JLINK_WriteReg(R8, 0x00000000)  returns 0x00 (0001ms, 0169ms total)
T127C 000:228 JLINK_WriteReg(R9, 0x20000160)  returns 0x00 (0000ms, 0169ms total)
T127C 000:228 JLINK_WriteReg(R10, 0x00000000)  returns 0x00 (0000ms, 0169ms total)
T127C 000:228 JLINK_WriteReg(R11, 0x00000000)  returns 0x00 (0000ms, 0169ms total)
T127C 000:228 JLINK_WriteReg(R12, 0x00000000)  returns 0x00 (0000ms, 0169ms total)
T127C 000:228 JLINK_WriteReg(R13, 0x20000800)  returns 0x00 (0000ms, 0169ms total)
T127C 000:228 JLINK_WriteReg(R14, 0x20000001)  returns 0x00 (0000ms, 0169ms total)
T127C 000:228 JLINK_WriteReg(R15, 0x2000007C)  returns 0x00 (0000ms, 0169ms total)
T127C 000:228 JLINK_WriteReg(XPSR, 0x01000000)  returns 0x00 (0000ms, 0169ms total)
T127C 000:228 JLINK_WriteReg(MSP, 0x20000800)  returns 0x00 (0000ms, 0169ms total)
T127C 000:228 JLINK_WriteReg(PSP, 0x20000800)  returns 0x00 (0000ms, 0169ms total)
T127C 000:228 JLINK_WriteReg(CFBP, 0x00000000)  returns 0x00 (0000ms, 0169ms total)
T127C 000:228 JLINK_SetBPEx(Addr = 0x20000000, Type = 0xFFFFFFF2)  returns 0x00000002 (0000ms, 0169ms total)
T127C 000:228 JLINK_Go() (0002ms, 0171ms total)
T127C 000:230 JLINK_IsHalted()  returns FALSE (0001ms, 0172ms total)
T127C 000:287 JLINK_IsHalted() -- CPU_ReadMem(2 bytes @ 0x20000000)  returns TRUE (0004ms, 0175ms total)
T127C 000:291 JLINK_ReadReg(R15)  returns 0x20000000 (0000ms, 0171ms total)
T127C 000:291 JLINK_ClrBPEx(BPHandle = 0x00000002)  returns 0x00 (0000ms, 0171ms total)
T127C 000:291 JLINK_ReadReg(R0)  returns 0x00000000 (0000ms, 0171ms total)
T127C 000:344 JLINK_WriteReg(R0, 0x00000001)  returns 0x00 (0000ms, 0171ms total)
T127C 000:344 JLINK_WriteReg(R1, 0x007A1200)  returns 0x00 (0000ms, 0171ms total)
T127C 000:344 JLINK_WriteReg(R2, 0x00000001)  returns 0x00 (0000ms, 0171ms total)
T127C 000:344 JLINK_WriteReg(R3, 0x00000000)  returns 0x00 (0000ms, 0171ms total)
T127C 000:344 JLINK_WriteReg(R4, 0x00000000)  returns 0x00 (0000ms, 0171ms total)
T127C 000:344 JLINK_WriteReg(R5, 0x00000000)  returns 0x00 (0000ms, 0171ms total)
T127C 000:344 JLINK_WriteReg(R6, 0x00000000)  returns 0x00 (0000ms, 0171ms total)
T127C 000:344 JLINK_WriteReg(R7, 0x00000000)  returns 0x00 (0001ms, 0172ms total)
T127C 000:345 JLINK_WriteReg(R8, 0x00000000)  returns 0x00 (0000ms, 0172ms total)
T127C 000:345 JLINK_WriteReg(R9, 0x20000160)  returns 0x00 (0000ms, 0172ms total)
T127C 000:345 JLINK_WriteReg(R10, 0x00000000)  returns 0x00 (0000ms, 0172ms total)
T127C 000:345 JLINK_WriteReg(R11, 0x00000000)  returns 0x00 (0000ms, 0172ms total)
T127C 000:345 JLINK_WriteReg(R12, 0x00000000)  returns 0x00 (0000ms, 0172ms total)
T127C 000:345 JLINK_WriteReg(R13, 0x20000800)  returns 0x00 (0000ms, 0172ms total)
T127C 000:345 JLINK_WriteReg(R14, 0x20000001)  returns 0x00 (0000ms, 0172ms total)
T127C 000:345 JLINK_WriteReg(R15, 0x2000006A)  returns 0x00 (0000ms, 0172ms total)
T127C 000:345 JLINK_WriteReg(XPSR, 0x01000000)  returns 0x00 (0001ms, 0173ms total)
T127C 000:346 JLINK_WriteReg(MSP, 0x20000800)  returns 0x00 (0000ms, 0173ms total)
T127C 000:346 JLINK_WriteReg(PSP, 0x20000800)  returns 0x00 (0000ms, 0173ms total)
T127C 000:346 JLINK_WriteReg(CFBP, 0x00000000)  returns 0x00 (0000ms, 0173ms total)
T127C 000:346 JLINK_SetBPEx(Addr = 0x20000000, Type = 0xFFFFFFF2)  returns 0x00000003 (0000ms, 0173ms total)
T127C 000:346 JLINK_Go() (0002ms, 0175ms total)
T127C 000:348 JLINK_IsHalted() -- CPU_ReadMem(2 bytes @ 0x20000000)  returns TRUE (0005ms, 0180ms total)
T127C 000:353 JLINK_ReadReg(R15)  returns 0x20000000 (0000ms, 0175ms total)
T127C 000:353 JLINK_ClrBPEx(BPHandle = 0x00000003)  returns 0x00 (0000ms, 0175ms total)
T127C 000:353 JLINK_ReadReg(R0)  returns 0x00000000 (0000ms, 0175ms total)
T127C 000:362 JLINK_WriteMem(0x20000000, 0x0164 Bytes, ...) -- Data:  00 BE 0A E0 0D 78 2D 06 68 40 08 24 40 00 00 D3 ... -- CPU_WriteMem(356 bytes @ 0x20000000)  returns 0x164 (0006ms, 0181ms total)
T127C 000:368 JLINK_WriteReg(R0, 0x08000000)  returns 0x00 (0000ms, 0181ms total)
T127C 000:368 JLINK_WriteReg(R1, 0x007A1200)  returns 0x00 (0000ms, 0181ms total)
T127C 000:368 JLINK_WriteReg(R2, 0x00000002)  returns 0x00 (0000ms, 0181ms total)
T127C 000:368 JLINK_WriteReg(R3, 0x00000000)  returns 0x00 (0000ms, 0181ms total)
T127C 000:368 JLINK_WriteReg(R4, 0x00000000)  returns 0x00 (0000ms, 0181ms total)
T127C 000:368 JLINK_WriteReg(R5, 0x00000000)  returns 0x00 (0000ms, 0181ms total)
T127C 000:368 JLINK_WriteReg(R6, 0x00000000)  returns 0x00 (0000ms, 0181ms total)
T127C 000:368 JLINK_WriteReg(R7, 0x00000000)  returns 0x00 (0000ms, 0181ms total)
T127C 000:368 JLINK_WriteReg(R8, 0x00000000)  returns 0x00 (0000ms, 0181ms total)
T127C 000:368 JLINK_WriteReg(R9, 0x20000160)  returns 0x00 (0000ms, 0181ms total)
T127C 000:368 JLINK_WriteReg(R10, 0x00000000)  returns 0x00 (0000ms, 0181ms total)
T127C 000:368 JLINK_WriteReg(R11, 0x00000000)  returns 0x00 (0000ms, 0181ms total)
T127C 000:368 JLINK_WriteReg(R12, 0x00000000)  returns 0x00 (0000ms, 0181ms total)
T127C 000:368 JLINK_WriteReg(R13, 0x20000800)  returns 0x00 (0000ms, 0181ms total)
T127C 000:368 JLINK_WriteReg(R14, 0x20000001)  returns 0x00 (0000ms, 0181ms total)
T127C 000:368 JLINK_WriteReg(R15, 0x20000038)  returns 0x00 (0000ms, 0181ms total)
T127C 000:369 JLINK_WriteReg(XPSR, 0x01000000)  returns 0x00 (0000ms, 0182ms total)
T127C 000:369 JLINK_WriteReg(MSP, 0x20000800)  returns 0x00 (0000ms, 0182ms total)
T127C 000:369 JLINK_WriteReg(PSP, 0x20000800)  returns 0x00 (0000ms, 0182ms total)
T127C 000:369 JLINK_WriteReg(CFBP, 0x00000000)  returns 0x00 (0000ms, 0182ms total)
T127C 000:369 JLINK_SetBPEx(Addr = 0x20000000, Type = 0xFFFFFFF2) -- CPU_ReadMem(2 bytes @ 0x20000000)  returns 0x00000004 (0001ms, 0183ms total)
T127C 000:370 JLINK_Go() -- CPU_WriteMem(2 bytes @ 0x20000000) (0005ms, 0188ms total)
T127C 000:376 JLINK_IsHalted() -- CPU_ReadMem(2 bytes @ 0x20000000)  returns TRUE (0004ms, 0192ms total)
T127C 000:380 JLINK_ReadReg(R15)  returns 0x20000000 (0000ms, 0188ms total)
T127C 000:380 JLINK_ClrBPEx(BPHandle = 0x00000004)  returns 0x00 (0000ms, 0188ms total)
T127C 000:380 JLINK_ReadReg(R0)  returns 0x00000000 (0000ms, 0188ms total)
T127C 000:381 JLINK_WriteMem(0x20000164, 0x0400 Bytes, ...) -- Data:  88 1F 00 20 45 01 00 08 0D 24 00 08 0F 24 00 08 ... -- CPU_WriteMem(1024 bytes @ 0x20000164)  returns 0x400 (0013ms, 0201ms total)
T127C 000:394 JLINK_WriteReg(R0, 0x08000000)  returns 0x00 (0000ms, 0201ms total)
T127C 000:394 JLINK_WriteReg(R1, 0x00000400)  returns 0x00 (0000ms, 0201ms total)
T127C 000:394 JLINK_WriteReg(R2, 0x20000164)  returns 0x00 (0000ms, 0201ms total)
T127C 000:394 JLINK_WriteReg(R3, 0x00000000)  returns 0x00 (0000ms, 0201ms total)
T127C 000:394 JLINK_WriteReg(R4, 0x00000000)  returns 0x00 (0000ms, 0201ms total)
T127C 000:394 JLINK_WriteReg(R5, 0x00000000)  returns 0x00 (0000ms, 0201ms total)
T127C 000:394 JLINK_WriteReg(R6, 0x00000000)  returns 0x00 (0000ms, 0201ms total)
T127C 000:394 JLINK_WriteReg(R7, 0x00000000)  returns 0x00 (0000ms, 0201ms total)
T127C 000:394 JLINK_WriteReg(R8, 0x00000000)  returns 0x00 (0000ms, 0201ms total)
T127C 000:394 JLINK_WriteReg(R9, 0x20000160)  returns 0x00 (0000ms, 0201ms total)
T127C 000:394 JLINK_WriteReg(R10, 0x00000000)  returns 0x00 (0000ms, 0201ms total)
T127C 000:394 JLINK_WriteReg(R11, 0x00000000)  returns 0x00 (0000ms, 0201ms total)
T127C 000:394 JLINK_WriteReg(R12, 0x00000000)  returns 0x00 (0000ms, 0201ms total)
T127C 000:394 JLINK_WriteReg(R13, 0x20000800)  returns 0x00 (0000ms, 0201ms total)
T127C 000:394 JLINK_WriteReg(R14, 0x20000001)  returns 0x00 (0000ms, 0201ms total)
T127C 000:394 JLINK_WriteReg(R15, 0x200000F4)  returns 0x00 (0000ms, 0201ms total)
T127C 000:394 JLINK_WriteReg(XPSR, 0x01000000)  returns 0x00 (0000ms, 0201ms total)
T127C 000:394 JLINK_WriteReg(MSP, 0x20000800)  returns 0x00 (0000ms, 0201ms total)
T127C 000:394 JLINK_WriteReg(PSP, 0x20000800)  returns 0x00 (0000ms, 0201ms total)
T127C 000:394 JLINK_WriteReg(CFBP, 0x00000000)  returns 0x00 (0000ms, 0201ms total)
T127C 000:394 JLINK_SetBPEx(Addr = 0x20000000, Type = 0xFFFFFFF2)  returns 0x00000005 (0000ms, 0201ms total)
T127C 000:394 JLINK_Go() (0003ms, 0204ms total)
T127C 000:397 JLINK_IsHalted()  returns FALSE (0001ms, 0205ms total)
T127C 000:445 JLINK_IsHalted() -- CPU_ReadMem(2 bytes @ 0x20000000)  returns TRUE (0004ms, 0208ms total)
T127C 000:449 JLINK_ReadReg(R15)  returns 0x20000000 (0000ms, 0204ms total)
T127C 000:449 JLINK_ClrBPEx(BPHandle = 0x00000005)  returns 0x00 (0000ms, 0204ms total)
T127C 000:449 JLINK_ReadReg(R0)  returns 0x00000000 (0000ms, 0204ms total)
T127C 000:449 JLINK_WriteMem(0x20000164, 0x0400 Bytes, ...) -- Data:  09 69 21 F0 04 01 4F F0 E0 22 11 61 70 47 00 00 ... -- CPU_WriteMem(1024 bytes @ 0x20000164)  returns 0x400 (0013ms, 0217ms total)
T127C 000:462 JLINK_WriteReg(R0, 0x08000400)  returns 0x00 (0000ms, 0217ms total)
T127C 000:462 JLINK_WriteReg(R1, 0x00000400)  returns 0x00 (0000ms, 0217ms total)
T127C 000:462 JLINK_WriteReg(R2, 0x20000164)  returns 0x00 (0000ms, 0217ms total)
T127C 000:462 JLINK_WriteReg(R3, 0x00000000)  returns 0x00 (0000ms, 0217ms total)
T127C 000:462 JLINK_WriteReg(R4, 0x00000000)  returns 0x00 (0000ms, 0217ms total)
T127C 000:462 JLINK_WriteReg(R5, 0x00000000)  returns 0x00 (0000ms, 0217ms total)
T127C 000:462 JLINK_WriteReg(R6, 0x00000000)  returns 0x00 (0000ms, 0217ms total)
T127C 000:462 JLINK_WriteReg(R7, 0x00000000)  returns 0x00 (0000ms, 0217ms total)
T127C 000:462 JLINK_WriteReg(R8, 0x00000000)  returns 0x00 (0000ms, 0217ms total)
T127C 000:462 JLINK_WriteReg(R9, 0x20000160)  returns 0x00 (0000ms, 0217ms total)
T127C 000:462 JLINK_WriteReg(R10, 0x00000000)  returns 0x00 (0000ms, 0217ms total)
T127C 000:462 JLINK_WriteReg(R11, 0x00000000)  returns 0x00 (0000ms, 0217ms total)
T127C 000:462 JLINK_WriteReg(R12, 0x00000000)  returns 0x00 (0000ms, 0217ms total)
T127C 000:462 JLINK_WriteReg(R13, 0x20000800)  returns 0x00 (0000ms, 0217ms total)
T127C 000:462 JLINK_WriteReg(R14, 0x20000001)  returns 0x00 (0000ms, 0217ms total)
T127C 000:462 JLINK_WriteReg(R15, 0x200000F4)  returns 0x00 (0000ms, 0217ms total)
T127C 000:462 JLINK_WriteReg(XPSR, 0x01000000)  returns 0x00 (0000ms, 0217ms total)
T127C 000:462 JLINK_WriteReg(MSP, 0x20000800)  returns 0x00 (0000ms, 0217ms total)
T127C 000:462 JLINK_WriteReg(PSP, 0x20000800)  returns 0x00 (0000ms, 0217ms total)
T127C 000:462 JLINK_WriteReg(CFBP, 0x00000000)  returns 0x00 (0000ms, 0217ms total)
T127C 000:462 JLINK_SetBPEx(Addr = 0x20000000, Type = 0xFFFFFFF2)  returns 0x00000006 (0000ms, 0217ms total)
T127C 000:462 JLINK_Go() (0002ms, 0219ms total)
T127C 000:464 JLINK_IsHalted()  returns FALSE (0001ms, 0220ms total)
T127C 000:473 JLINK_IsHalted()  returns FALSE (0000ms, 0219ms total)
T127C 000:474 JLINK_IsHalted()  returns FALSE (0000ms, 0219ms total)
T127C 000:475 JLINK_IsHalted()  returns FALSE (0000ms, 0219ms total)
T127C 000:476 JLINK_IsHalted()  returns FALSE (0000ms, 0219ms total)
T127C 000:477 JLINK_IsHalted()  returns FALSE (0000ms, 0219ms total)
T127C 000:478 JLINK_IsHalted()  returns FALSE (0000ms, 0219ms total)
T127C 000:479 JLINK_IsHalted()  returns FALSE (0000ms, 0219ms total)
T127C 000:491 JLINK_IsHalted()  returns FALSE (0000ms, 0219ms total)
T127C 000:492 JLINK_IsHalted()  returns FALSE (0000ms, 0219ms total)
T127C 000:493 JLINK_IsHalted()  returns FALSE (0000ms, 0219ms total)
T127C 000:494 JLINK_IsHalted()  returns FALSE (0000ms, 0219ms total)
T127C 000:498 JLINK_IsHalted() -- CPU_ReadMem(2 bytes @ 0x20000000)  returns TRUE (0004ms, 0223ms total)
T127C 000:502 JLINK_ReadReg(R15)  returns 0x20000000 (0000ms, 0219ms total)
T127C 000:502 JLINK_ClrBPEx(BPHandle = 0x00000006)  returns 0x00 (0000ms, 0219ms total)
T127C 000:502 JLINK_ReadReg(R0)  returns 0x00000000 (0000ms, 0219ms total)
T127C 000:502 JLINK_WriteMem(0x20000164, 0x0400 Bytes, ...) -- Data:  04 49 08 31 09 68 21 F4 00 01 02 4A 08 32 11 60 ... -- CPU_WriteMem(1024 bytes @ 0x20000164)  returns 0x400 (0013ms, 0232ms total)
T127C 000:515 JLINK_WriteReg(R0, 0x08000800)  returns 0x00 (0000ms, 0232ms total)
T127C 000:515 JLINK_WriteReg(R1, 0x00000400)  returns 0x00 (0000ms, 0232ms total)
T127C 000:515 JLINK_WriteReg(R2, 0x20000164)  returns 0x00 (0000ms, 0232ms total)
T127C 000:515 JLINK_WriteReg(R3, 0x00000000)  returns 0x00 (0000ms, 0232ms total)
T127C 000:515 JLINK_WriteReg(R4, 0x00000000)  returns 0x00 (0000ms, 0232ms total)
T127C 000:515 JLINK_WriteReg(R5, 0x00000000)  returns 0x00 (0000ms, 0232ms total)
T127C 000:515 JLINK_WriteReg(R6, 0x00000000)  returns 0x00 (0000ms, 0232ms total)
T127C 000:515 JLINK_WriteReg(R7, 0x00000000)  returns 0x00 (0000ms, 0232ms total)
T127C 000:515 JLINK_WriteReg(R8, 0x00000000)  returns 0x00 (0000ms, 0232ms total)
T127C 000:515 JLINK_WriteReg(R9, 0x20000160)  returns 0x00 (0000ms, 0232ms total)
T127C 000:515 JLINK_WriteReg(R10, 0x00000000)  returns 0x00 (0000ms, 0232ms total)
T127C 000:515 JLINK_WriteReg(R11, 0x00000000)  returns 0x00 (0000ms, 0232ms total)
T127C 000:515 JLINK_WriteReg(R12, 0x00000000)  returns 0x00 (0000ms, 0232ms total)
T127C 000:515 JLINK_WriteReg(R13, 0x20000800)  returns 0x00 (0000ms, 0232ms total)
T127C 000:515 JLINK_WriteReg(R14, 0x20000001)  returns 0x00 (0000ms, 0232ms total)
T127C 000:515 JLINK_WriteReg(R15, 0x200000F4)  returns 0x00 (0000ms, 0232ms total)
T127C 000:515 JLINK_WriteReg(XPSR, 0x01000000)  returns 0x00 (0000ms, 0232ms total)
T127C 000:515 JLINK_WriteReg(MSP, 0x20000800)  returns 0x00 (0000ms, 0232ms total)
T127C 000:515 JLINK_WriteReg(PSP, 0x20000800)  returns 0x00 (0000ms, 0232ms total)
T127C 000:515 JLINK_WriteReg(CFBP, 0x00000000)  returns 0x00 (0000ms, 0232ms total)
T127C 000:515 JLINK_SetBPEx(Addr = 0x20000000, Type = 0xFFFFFFF2)  returns 0x00000007 (0000ms, 0232ms total)
T127C 000:515 JLINK_Go() (0002ms, 0234ms total)
T127C 000:517 JLINK_IsHalted()  returns FALSE (0001ms, 0235ms total)
T127C 000:535 JLINK_IsHalted()  returns FALSE (0001ms, 0235ms total)
T127C 000:537 JLINK_IsHalted()  returns FALSE (0000ms, 0234ms total)
T127C 000:538 JLINK_IsHalted()  returns FALSE (0000ms, 0234ms total)
T127C 000:539 JLINK_IsHalted()  returns FALSE (0000ms, 0234ms total)
T127C 000:540 JLINK_IsHalted()  returns FALSE (0000ms, 0234ms total)
T127C 000:547 JLINK_IsHalted()  returns FALSE (0000ms, 0234ms total)
T127C 000:548 JLINK_IsHalted() -- CPU_ReadMem(2 bytes @ 0x20000000)  returns TRUE (0004ms, 0238ms total)
T127C 000:552 JLINK_ReadReg(R15)  returns 0x20000000 (0000ms, 0234ms total)
T127C 000:552 JLINK_ClrBPEx(BPHandle = 0x00000007)  returns 0x00 (0000ms, 0234ms total)
T127C 000:552 JLINK_ReadReg(R0)  returns 0x00000000 (0000ms, 0234ms total)
T127C 000:553 JLINK_WriteMem(0x20000164, 0x0400 Bytes, ...) -- Data:  83 00 A3 F1 C0 43 1A 60 70 47 99 B1 10 28 08 D1 ... -- CPU_WriteMem(1024 bytes @ 0x20000164)  returns 0x400 (0012ms, 0246ms total)
T127C 000:565 JLINK_WriteReg(R0, 0x08000C00)  returns 0x00 (0000ms, 0246ms total)
T127C 000:565 JLINK_WriteReg(R1, 0x00000400)  returns 0x00 (0000ms, 0246ms total)
T127C 000:565 JLINK_WriteReg(R2, 0x20000164)  returns 0x00 (0000ms, 0246ms total)
T127C 000:565 JLINK_WriteReg(R3, 0x00000000)  returns 0x00 (0000ms, 0246ms total)
T127C 000:565 JLINK_WriteReg(R4, 0x00000000)  returns 0x00 (0000ms, 0246ms total)
T127C 000:565 JLINK_WriteReg(R5, 0x00000000)  returns 0x00 (0001ms, 0247ms total)
T127C 000:566 JLINK_WriteReg(R6, 0x00000000)  returns 0x00 (0000ms, 0247ms total)
T127C 000:566 JLINK_WriteReg(R7, 0x00000000)  returns 0x00 (0000ms, 0247ms total)
T127C 000:566 JLINK_WriteReg(R8, 0x00000000)  returns 0x00 (0000ms, 0247ms total)
T127C 000:566 JLINK_WriteReg(R9, 0x20000160)  returns 0x00 (0000ms, 0247ms total)
T127C 000:566 JLINK_WriteReg(R10, 0x00000000)  returns 0x00 (0000ms, 0247ms total)
T127C 000:566 JLINK_WriteReg(R11, 0x00000000)  returns 0x00 (0000ms, 0247ms total)
T127C 000:566 JLINK_WriteReg(R12, 0x00000000)  returns 0x00 (0000ms, 0247ms total)
T127C 000:566 JLINK_WriteReg(R13, 0x20000800)  returns 0x00 (0000ms, 0247ms total)
T127C 000:566 JLINK_WriteReg(R14, 0x20000001)  returns 0x00 (0000ms, 0247ms total)
T127C 000:566 JLINK_WriteReg(R15, 0x200000F4)  returns 0x00 (0000ms, 0247ms total)
T127C 000:566 JLINK_WriteReg(XPSR, 0x01000000)  returns 0x00 (0000ms, 0247ms total)
T127C 000:566 JLINK_WriteReg(MSP, 0x20000800)  returns 0x00 (0000ms, 0247ms total)
T127C 000:566 JLINK_WriteReg(PSP, 0x20000800)  returns 0x00 (0000ms, 0247ms total)
T127C 000:566 JLINK_WriteReg(CFBP, 0x00000000)  returns 0x00 (0000ms, 0247ms total)
T127C 000:566 JLINK_SetBPEx(Addr = 0x20000000, Type = 0xFFFFFFF2)  returns 0x00000008 (0000ms, 0247ms total)
T127C 000:566 JLINK_Go() (0002ms, 0249ms total)
T127C 000:568 JLINK_IsHalted()  returns FALSE (0001ms, 0250ms total)
T127C 000:571 JLINK_IsHalted()  returns FALSE (0000ms, 0249ms total)
T127C 000:572 JLINK_IsHalted()  returns FALSE (0000ms, 0249ms total)
T127C 000:576 JLINK_IsHalted()  returns FALSE (0000ms, 0249ms total)
T127C 000:577 JLINK_IsHalted()  returns FALSE (0000ms, 0249ms total)
T127C 000:578 JLINK_IsHalted()  returns FALSE (0000ms, 0249ms total)
T127C 000:579 JLINK_IsHalted()  returns FALSE (0000ms, 0249ms total)
T127C 000:580 JLINK_IsHalted()  returns FALSE (0000ms, 0249ms total)
T127C 000:581 JLINK_IsHalted()  returns FALSE (0000ms, 0249ms total)
T127C 000:582 JLINK_IsHalted()  returns FALSE (0000ms, 0249ms total)
T127C 000:583 JLINK_IsHalted()  returns FALSE (0000ms, 0249ms total)
T127C 000:584 JLINK_IsHalted()  returns FALSE (0000ms, 0249ms total)
T127C 000:585 JLINK_IsHalted()  returns FALSE (0000ms, 0249ms total)
T127C 000:586 JLINK_IsHalted()  returns FALSE (0000ms, 0249ms total)
T127C 000:587 JLINK_IsHalted()  returns FALSE (0000ms, 0249ms total)
T127C 000:601 JLINK_IsHalted() -- CPU_ReadMem(2 bytes @ 0x20000000)  returns TRUE (0004ms, 0253ms total)
T127C 000:605 JLINK_ReadReg(R15)  returns 0x20000000 (0000ms, 0249ms total)
T127C 000:605 JLINK_ClrBPEx(BPHandle = 0x00000008)  returns 0x00 (0000ms, 0249ms total)
T127C 000:605 JLINK_ReadReg(R0)  returns 0x00000000 (0000ms, 0249ms total)
T127C 000:606 JLINK_WriteMem(0x20000164, 0x0400 Bytes, ...) -- Data:  03 06 9E 42 21 D1 83 00 4F F0 0F 0C 0C FA 03 F7 ... -- CPU_WriteMem(1024 bytes @ 0x20000164)  returns 0x400 (0013ms, 0262ms total)
T127C 000:619 JLINK_WriteReg(R0, 0x08001000)  returns 0x00 (0000ms, 0262ms total)
T127C 000:619 JLINK_WriteReg(R1, 0x00000400)  returns 0x00 (0000ms, 0262ms total)
T127C 000:619 JLINK_WriteReg(R2, 0x20000164)  returns 0x00 (0000ms, 0262ms total)
T127C 000:619 JLINK_WriteReg(R3, 0x00000000)  returns 0x00 (0000ms, 0262ms total)
T127C 000:619 JLINK_WriteReg(R4, 0x00000000)  returns 0x00 (0000ms, 0262ms total)
T127C 000:619 JLINK_WriteReg(R5, 0x00000000)  returns 0x00 (0000ms, 0262ms total)
T127C 000:619 JLINK_WriteReg(R6, 0x00000000)  returns 0x00 (0000ms, 0262ms total)
T127C 000:619 JLINK_WriteReg(R7, 0x00000000)  returns 0x00 (0000ms, 0262ms total)
T127C 000:619 JLINK_WriteReg(R8, 0x00000000)  returns 0x00 (0000ms, 0262ms total)
T127C 000:619 JLINK_WriteReg(R9, 0x20000160)  returns 0x00 (0000ms, 0262ms total)
T127C 000:619 JLINK_WriteReg(R10, 0x00000000)  returns 0x00 (0000ms, 0262ms total)
T127C 000:619 JLINK_WriteReg(R11, 0x00000000)  returns 0x00 (0000ms, 0262ms total)
T127C 000:619 JLINK_WriteReg(R12, 0x00000000)  returns 0x00 (0000ms, 0262ms total)
T127C 000:619 JLINK_WriteReg(R13, 0x20000800)  returns 0x00 (0000ms, 0262ms total)
T127C 000:619 JLINK_WriteReg(R14, 0x20000001)  returns 0x00 (0000ms, 0262ms total)
T127C 000:619 JLINK_WriteReg(R15, 0x200000F4)  returns 0x00 (0000ms, 0262ms total)
T127C 000:619 JLINK_WriteReg(XPSR, 0x01000000)  returns 0x00 (0000ms, 0262ms total)
T127C 000:619 JLINK_WriteReg(MSP, 0x20000800)  returns 0x00 (0000ms, 0262ms total)
T127C 000:619 JLINK_WriteReg(PSP, 0x20000800)  returns 0x00 (0000ms, 0262ms total)
T127C 000:619 JLINK_WriteReg(CFBP, 0x00000000)  returns 0x00 (0000ms, 0262ms total)
T127C 000:619 JLINK_SetBPEx(Addr = 0x20000000, Type = 0xFFFFFFF2)  returns 0x00000009 (0000ms, 0262ms total)
T127C 000:619 JLINK_Go() (0002ms, 0264ms total)
T127C 000:621 JLINK_IsHalted()  returns FALSE (0001ms, 0265ms total)
T127C 000:641 JLINK_IsHalted()  returns FALSE (0000ms, 0264ms total)
T127C 000:643 JLINK_IsHalted()  returns FALSE (0000ms, 0264ms total)
T127C 000:644 JLINK_IsHalted()  returns FALSE (0000ms, 0264ms total)
T127C 000:645 JLINK_IsHalted()  returns FALSE (0000ms, 0264ms total)
T127C 000:646 JLINK_IsHalted()  returns FALSE (0000ms, 0264ms total)
T127C 000:647 JLINK_IsHalted()  returns FALSE (0000ms, 0264ms total)
T127C 000:648 JLINK_IsHalted()  returns FALSE (0000ms, 0264ms total)
T127C 000:649 JLINK_IsHalted()  returns FALSE (0000ms, 0264ms total)
T127C 000:657 JLINK_IsHalted() -- CPU_ReadMem(2 bytes @ 0x20000000)  returns TRUE (0004ms, 0268ms total)
T127C 000:661 JLINK_ReadReg(R15)  returns 0x20000000 (0000ms, 0264ms total)
T127C 000:661 JLINK_ClrBPEx(BPHandle = 0x00000009)  returns 0x00 (0000ms, 0264ms total)
T127C 000:661 JLINK_ReadReg(R0)  returns 0x00000000 (0000ms, 0264ms total)
T127C 000:662 JLINK_WriteMem(0x20000164, 0x0400 Bytes, ...) -- Data:  22 E0 5B 4D 05 60 1F E0 54 4D 6D 68 05 F4 70 12 ... -- CPU_WriteMem(1024 bytes @ 0x20000164)  returns 0x400 (0012ms, 0276ms total)
T127C 000:674 JLINK_WriteReg(R0, 0x08001400)  returns 0x00 (0000ms, 0276ms total)
T127C 000:674 JLINK_WriteReg(R1, 0x00000400)  returns 0x00 (0000ms, 0276ms total)
T127C 000:674 JLINK_WriteReg(R2, 0x20000164)  returns 0x00 (0000ms, 0276ms total)
T127C 000:674 JLINK_WriteReg(R3, 0x00000000)  returns 0x00 (0000ms, 0276ms total)
T127C 000:674 JLINK_WriteReg(R4, 0x00000000)  returns 0x00 (0000ms, 0276ms total)
T127C 000:674 JLINK_WriteReg(R5, 0x00000000)  returns 0x00 (0000ms, 0276ms total)
T127C 000:674 JLINK_WriteReg(R6, 0x00000000)  returns 0x00 (0000ms, 0276ms total)
T127C 000:674 JLINK_WriteReg(R7, 0x00000000)  returns 0x00 (0000ms, 0276ms total)
T127C 000:674 JLINK_WriteReg(R8, 0x00000000)  returns 0x00 (0000ms, 0276ms total)
T127C 000:674 JLINK_WriteReg(R9, 0x20000160)  returns 0x00 (0000ms, 0276ms total)
T127C 000:674 JLINK_WriteReg(R10, 0x00000000)  returns 0x00 (0000ms, 0276ms total)
T127C 000:674 JLINK_WriteReg(R11, 0x00000000)  returns 0x00 (0001ms, 0277ms total)
T127C 000:675 JLINK_WriteReg(R12, 0x00000000)  returns 0x00 (0000ms, 0277ms total)
T127C 000:675 JLINK_WriteReg(R13, 0x20000800)  returns 0x00 (0000ms, 0277ms total)
T127C 000:675 JLINK_WriteReg(R14, 0x20000001)  returns 0x00 (0000ms, 0277ms total)
T127C 000:675 JLINK_WriteReg(R15, 0x200000F4)  returns 0x00 (0000ms, 0277ms total)
T127C 000:675 JLINK_WriteReg(XPSR, 0x01000000)  returns 0x00 (0000ms, 0277ms total)
T127C 000:675 JLINK_WriteReg(MSP, 0x20000800)  returns 0x00 (0000ms, 0277ms total)
T127C 000:675 JLINK_WriteReg(PSP, 0x20000800)  returns 0x00 (0000ms, 0277ms total)
T127C 000:675 JLINK_WriteReg(CFBP, 0x00000000)  returns 0x00 (0000ms, 0277ms total)
T127C 000:675 JLINK_SetBPEx(Addr = 0x20000000, Type = 0xFFFFFFF2)  returns 0x0000000A (0000ms, 0277ms total)
T127C 000:675 JLINK_Go() (0002ms, 0279ms total)
T127C 000:677 JLINK_IsHalted()  returns FALSE (0001ms, 0280ms total)
T127C 000:685 JLINK_IsHalted()  returns FALSE (0000ms, 0279ms total)
T127C 000:686 JLINK_IsHalted()  returns FALSE (0000ms, 0279ms total)
T127C 000:687 JLINK_IsHalted()  returns FALSE (0000ms, 0279ms total)
T127C 000:688 JLINK_IsHalted()  returns FALSE (0000ms, 0279ms total)
T127C 000:689 JLINK_IsHalted()  returns FALSE (0000ms, 0279ms total)
T127C 000:690 JLINK_IsHalted()  returns FALSE (0000ms, 0279ms total)
T127C 000:691 JLINK_IsHalted()  returns FALSE (0000ms, 0279ms total)
T127C 000:692 JLINK_IsHalted()  returns FALSE (0000ms, 0279ms total)
T127C 000:693 JLINK_IsHalted()  returns FALSE (0000ms, 0279ms total)
T127C 000:694 JLINK_IsHalted()  returns FALSE (0000ms, 0279ms total)
T127C 000:695 JLINK_IsHalted()  returns FALSE (0000ms, 0279ms total)
T127C 000:696 JLINK_IsHalted()  returns FALSE (0000ms, 0279ms total)
T127C 000:697 JLINK_IsHalted()  returns FALSE (0000ms, 0279ms total)
T127C 000:698 JLINK_IsHalted()  returns FALSE (0000ms, 0279ms total)
T127C 000:699 JLINK_IsHalted()  returns FALSE (0000ms, 0279ms total)
T127C 000:712 JLINK_IsHalted() -- CPU_ReadMem(2 bytes @ 0x20000000)  returns TRUE (0004ms, 0283ms total)
T127C 000:716 JLINK_ReadReg(R15)  returns 0x20000000 (0000ms, 0279ms total)
T127C 000:716 JLINK_ClrBPEx(BPHandle = 0x0000000A)  returns 0x00 (0000ms, 0279ms total)
T127C 000:716 JLINK_ReadReg(R0)  returns 0x00000000 (0000ms, 0279ms total)
T127C 000:717 JLINK_WriteMem(0x20000164, 0x0400 Bytes, ...) -- Data:  2A 40 8D 88 2A 43 4F F6 FF 65 2B 40 4F F6 FF 55 ... -- CPU_WriteMem(1024 bytes @ 0x20000164)  returns 0x400 (0012ms, 0291ms total)
T127C 000:729 JLINK_WriteReg(R0, 0x08001800)  returns 0x00 (0000ms, 0291ms total)
T127C 000:729 JLINK_WriteReg(R1, 0x00000400)  returns 0x00 (0000ms, 0291ms total)
T127C 000:729 JLINK_WriteReg(R2, 0x20000164)  returns 0x00 (0000ms, 0291ms total)
T127C 000:729 JLINK_WriteReg(R3, 0x00000000)  returns 0x00 (0000ms, 0291ms total)
T127C 000:729 JLINK_WriteReg(R4, 0x00000000)  returns 0x00 (0000ms, 0291ms total)
T127C 000:729 JLINK_WriteReg(R5, 0x00000000)  returns 0x00 (0000ms, 0291ms total)
T127C 000:729 JLINK_WriteReg(R6, 0x00000000)  returns 0x00 (0001ms, 0292ms total)
T127C 000:730 JLINK_WriteReg(R7, 0x00000000)  returns 0x00 (0000ms, 0292ms total)
T127C 000:730 JLINK_WriteReg(R8, 0x00000000)  returns 0x00 (0000ms, 0292ms total)
T127C 000:730 JLINK_WriteReg(R9, 0x20000160)  returns 0x00 (0000ms, 0292ms total)
T127C 000:730 JLINK_WriteReg(R10, 0x00000000)  returns 0x00 (0000ms, 0292ms total)
T127C 000:730 JLINK_WriteReg(R11, 0x00000000)  returns 0x00 (0000ms, 0292ms total)
T127C 000:730 JLINK_WriteReg(R12, 0x00000000)  returns 0x00 (0000ms, 0292ms total)
T127C 000:730 JLINK_WriteReg(R13, 0x20000800)  returns 0x00 (0000ms, 0292ms total)
T127C 000:730 JLINK_WriteReg(R14, 0x20000001)  returns 0x00 (0000ms, 0292ms total)
T127C 000:730 JLINK_WriteReg(R15, 0x200000F4)  returns 0x00 (0000ms, 0292ms total)
T127C 000:730 JLINK_WriteReg(XPSR, 0x01000000)  returns 0x00 (0000ms, 0292ms total)
T127C 000:730 JLINK_WriteReg(MSP, 0x20000800)  returns 0x00 (0000ms, 0292ms total)
T127C 000:730 JLINK_WriteReg(PSP, 0x20000800)  returns 0x00 (0000ms, 0292ms total)
T127C 000:730 JLINK_WriteReg(CFBP, 0x00000000)  returns 0x00 (0000ms, 0292ms total)
T127C 000:730 JLINK_SetBPEx(Addr = 0x20000000, Type = 0xFFFFFFF2)  returns 0x0000000B (0000ms, 0292ms total)
T127C 000:730 JLINK_Go() (0002ms, 0294ms total)
T127C 000:732 JLINK_IsHalted()  returns FALSE (0001ms, 0295ms total)
T127C 000:751 JLINK_IsHalted()  returns FALSE (0000ms, 0294ms total)
T127C 000:752 JLINK_IsHalted()  returns FALSE (0000ms, 0294ms total)
T127C 000:753 JLINK_IsHalted()  returns FALSE (0000ms, 0294ms total)
T127C 000:754 JLINK_IsHalted()  returns FALSE (0000ms, 0294ms total)
T127C 000:755 JLINK_IsHalted()  returns FALSE (0000ms, 0294ms total)
T127C 000:756 JLINK_IsHalted()  returns FALSE (0000ms, 0294ms total)
T127C 000:757 JLINK_IsHalted()  returns FALSE (0000ms, 0294ms total)
T127C 000:758 JLINK_IsHalted()  returns FALSE (0000ms, 0294ms total)
T127C 000:759 JLINK_IsHalted()  returns FALSE (0000ms, 0294ms total)
T127C 000:760 JLINK_IsHalted()  returns FALSE (0000ms, 0294ms total)
T127C 000:761 JLINK_IsHalted()  returns FALSE (0000ms, 0294ms total)
T127C 000:762 JLINK_IsHalted()  returns FALSE (0000ms, 0294ms total)
T127C 000:763 JLINK_IsHalted() -- CPU_ReadMem(2 bytes @ 0x20000000)  returns TRUE (0004ms, 0298ms total)
T127C 000:767 JLINK_ReadReg(R15)  returns 0x20000000 (0000ms, 0294ms total)
T127C 000:767 JLINK_ClrBPEx(BPHandle = 0x0000000B)  returns 0x00 (0000ms, 0294ms total)
T127C 000:767 JLINK_ReadReg(R0)  returns 0x00000000 (0000ms, 0294ms total)
T127C 000:768 JLINK_WriteMem(0x20000164, 0x0400 Bytes, ...) -- Data:  7E 1C 06 EA 03 16 2E 43 32 43 70 4E B0 42 0E D0 ... -- CPU_WriteMem(1024 bytes @ 0x20000164)  returns 0x400 (0012ms, 0306ms total)
T127C 000:780 JLINK_WriteReg(R0, 0x08001C00)  returns 0x00 (0000ms, 0306ms total)
T127C 000:780 JLINK_WriteReg(R1, 0x00000400)  returns 0x00 (0000ms, 0306ms total)
T127C 000:780 JLINK_WriteReg(R2, 0x20000164)  returns 0x00 (0000ms, 0306ms total)
T127C 000:780 JLINK_WriteReg(R3, 0x00000000)  returns 0x00 (0000ms, 0306ms total)
T127C 000:780 JLINK_WriteReg(R4, 0x00000000)  returns 0x00 (0000ms, 0306ms total)
T127C 000:780 JLINK_WriteReg(R5, 0x00000000)  returns 0x00 (0000ms, 0306ms total)
T127C 000:780 JLINK_WriteReg(R6, 0x00000000)  returns 0x00 (0000ms, 0306ms total)
T127C 000:780 JLINK_WriteReg(R7, 0x00000000)  returns 0x00 (0000ms, 0306ms total)
T127C 000:780 JLINK_WriteReg(R8, 0x00000000)  returns 0x00 (0000ms, 0306ms total)
T127C 000:780 JLINK_WriteReg(R9, 0x20000160)  returns 0x00 (0000ms, 0306ms total)
T127C 000:780 JLINK_WriteReg(R10, 0x00000000)  returns 0x00 (0000ms, 0306ms total)
T127C 000:780 JLINK_WriteReg(R11, 0x00000000)  returns 0x00 (0001ms, 0307ms total)
T127C 000:781 JLINK_WriteReg(R12, 0x00000000)  returns 0x00 (0000ms, 0307ms total)
T127C 000:781 JLINK_WriteReg(R13, 0x20000800)  returns 0x00 (0000ms, 0307ms total)
T127C 000:781 JLINK_WriteReg(R14, 0x20000001)  returns 0x00 (0000ms, 0307ms total)
T127C 000:781 JLINK_WriteReg(R15, 0x200000F4)  returns 0x00 (0000ms, 0307ms total)
T127C 000:781 JLINK_WriteReg(XPSR, 0x01000000)  returns 0x00 (0000ms, 0307ms total)
T127C 000:781 JLINK_WriteReg(MSP, 0x20000800)  returns 0x00 (0000ms, 0307ms total)
T127C 000:781 JLINK_WriteReg(PSP, 0x20000800)  returns 0x00 (0000ms, 0307ms total)
T127C 000:781 JLINK_WriteReg(CFBP, 0x00000000)  returns 0x00 (0000ms, 0307ms total)
T127C 000:781 JLINK_SetBPEx(Addr = 0x20000000, Type = 0xFFFFFFF2)  returns 0x0000000C (0000ms, 0307ms total)
T127C 000:781 JLINK_Go() (0002ms, 0309ms total)
T127C 000:783 JLINK_IsHalted()  returns FALSE (0001ms, 0310ms total)
T127C 000:795 JLINK_IsHalted()  returns FALSE (0000ms, 0309ms total)
T127C 000:796 JLINK_IsHalted()  returns FALSE (0000ms, 0309ms total)
T127C 000:797 JLINK_IsHalted()  returns FALSE (0000ms, 0309ms total)
T127C 000:798 JLINK_IsHalted()  returns FALSE (0000ms, 0309ms total)
T127C 000:800 JLINK_IsHalted()  returns FALSE (0000ms, 0309ms total)
T127C 000:801 JLINK_IsHalted()  returns FALSE (0000ms, 0309ms total)
T127C 000:802 JLINK_IsHalted()  returns FALSE (0000ms, 0309ms total)
T127C 000:803 JLINK_IsHalted()  returns FALSE (0000ms, 0309ms total)
T127C 000:804 JLINK_IsHalted()  returns FALSE (0000ms, 0309ms total)
T127C 000:805 JLINK_IsHalted()  returns FALSE (0000ms, 0309ms total)
T127C 000:817 JLINK_IsHalted() -- CPU_ReadMem(2 bytes @ 0x20000000)  returns TRUE (0004ms, 0313ms total)
T127C 000:821 JLINK_ReadReg(R15)  returns 0x20000000 (0000ms, 0309ms total)
T127C 000:821 JLINK_ClrBPEx(BPHandle = 0x0000000C)  returns 0x00 (0000ms, 0309ms total)
T127C 000:821 JLINK_ReadReg(R0)  returns 0x00000000 (0000ms, 0309ms total)
T127C 000:822 JLINK_WriteMem(0x20000164, 0x0400 Bytes, ...) -- Data:  82 80 04 E0 82 88 4F F6 FB 73 1A 40 82 80 70 47 ... -- CPU_WriteMem(1024 bytes @ 0x20000164)  returns 0x400 (0012ms, 0321ms total)
T127C 000:834 JLINK_WriteReg(R0, 0x08002000)  returns 0x00 (0000ms, 0321ms total)
T127C 000:834 JLINK_WriteReg(R1, 0x00000400)  returns 0x00 (0000ms, 0321ms total)
T127C 000:834 JLINK_WriteReg(R2, 0x20000164)  returns 0x00 (0000ms, 0321ms total)
T127C 000:834 JLINK_WriteReg(R3, 0x00000000)  returns 0x00 (0000ms, 0321ms total)
T127C 000:834 JLINK_WriteReg(R4, 0x00000000)  returns 0x00 (0000ms, 0321ms total)
T127C 000:834 JLINK_WriteReg(R5, 0x00000000)  returns 0x00 (0000ms, 0321ms total)
T127C 000:834 JLINK_WriteReg(R6, 0x00000000)  returns 0x00 (0000ms, 0321ms total)
T127C 000:834 JLINK_WriteReg(R7, 0x00000000)  returns 0x00 (0000ms, 0321ms total)
T127C 000:834 JLINK_WriteReg(R8, 0x00000000)  returns 0x00 (0000ms, 0321ms total)
T127C 000:834 JLINK_WriteReg(R9, 0x20000160)  returns 0x00 (0000ms, 0321ms total)
T127C 000:834 JLINK_WriteReg(R10, 0x00000000)  returns 0x00 (0000ms, 0321ms total)
T127C 000:834 JLINK_WriteReg(R11, 0x00000000)  returns 0x00 (0000ms, 0321ms total)
T127C 000:834 JLINK_WriteReg(R12, 0x00000000)  returns 0x00 (0001ms, 0322ms total)
T127C 000:835 JLINK_WriteReg(R13, 0x20000800)  returns 0x00 (0000ms, 0322ms total)
T127C 000:835 JLINK_WriteReg(R14, 0x20000001)  returns 0x00 (0000ms, 0322ms total)
T127C 000:835 JLINK_WriteReg(R15, 0x200000F4)  returns 0x00 (0000ms, 0322ms total)
T127C 000:835 JLINK_WriteReg(XPSR, 0x01000000)  returns 0x00 (0000ms, 0322ms total)
T127C 000:835 JLINK_WriteReg(MSP, 0x20000800)  returns 0x00 (0000ms, 0322ms total)
T127C 000:835 JLINK_WriteReg(PSP, 0x20000800)  returns 0x00 (0000ms, 0322ms total)
T127C 000:835 JLINK_WriteReg(CFBP, 0x00000000)  returns 0x00 (0000ms, 0322ms total)
T127C 000:835 JLINK_SetBPEx(Addr = 0x20000000, Type = 0xFFFFFFF2)  returns 0x0000000D (0000ms, 0322ms total)
T127C 000:835 JLINK_Go() (0002ms, 0324ms total)
T127C 000:837 JLINK_IsHalted()  returns FALSE (0001ms, 0325ms total)
T127C 000:853 JLINK_IsHalted()  returns FALSE (0000ms, 0324ms total)
T127C 000:854 JLINK_IsHalted()  returns FALSE (0000ms, 0324ms total)
T127C 000:860 JLINK_IsHalted()  returns FALSE (0000ms, 0324ms total)
T127C 000:861 JLINK_IsHalted()  returns FALSE (0000ms, 0324ms total)
T127C 000:862 JLINK_IsHalted()  returns FALSE (0000ms, 0324ms total)
T127C 000:863 JLINK_IsHalted()  returns FALSE (0000ms, 0324ms total)
T127C 000:864 JLINK_IsHalted()  returns FALSE (0000ms, 0324ms total)
T127C 000:865 JLINK_IsHalted()  returns FALSE (0000ms, 0324ms total)
T127C 000:866 JLINK_IsHalted()  returns FALSE (0000ms, 0324ms total)
T127C 000:867 JLINK_IsHalted()  returns FALSE (0000ms, 0324ms total)
T127C 000:868 JLINK_IsHalted() -- CPU_ReadMem(2 bytes @ 0x20000000)  returns TRUE (0004ms, 0328ms total)
T127C 000:872 JLINK_ReadReg(R15)  returns 0x20000000 (0000ms, 0324ms total)
T127C 000:872 JLINK_ClrBPEx(BPHandle = 0x0000000D)  returns 0x00 (0000ms, 0324ms total)
T127C 000:872 JLINK_ReadReg(R0)  returns 0x00000000 (0000ms, 0324ms total)
T127C 000:873 JLINK_WriteMem(0x20000164, 0x0400 Bytes, ...) -- Data:  0B 61 00 08 5C 13 00 20 6B 59 00 08 70 47 00 BF ... -- CPU_WriteMem(1024 bytes @ 0x20000164)  returns 0x400 (0012ms, 0336ms total)
T127C 000:885 JLINK_WriteReg(R0, 0x08002400)  returns 0x00 (0000ms, 0336ms total)
T127C 000:885 JLINK_WriteReg(R1, 0x00000400)  returns 0x00 (0000ms, 0336ms total)
T127C 000:885 JLINK_WriteReg(R2, 0x20000164)  returns 0x00 (0000ms, 0336ms total)
T127C 000:885 JLINK_WriteReg(R3, 0x00000000)  returns 0x00 (0000ms, 0336ms total)
T127C 000:885 JLINK_WriteReg(R4, 0x00000000)  returns 0x00 (0000ms, 0336ms total)
T127C 000:885 JLINK_WriteReg(R5, 0x00000000)  returns 0x00 (0000ms, 0336ms total)
T127C 000:886 JLINK_WriteReg(R6, 0x00000000)  returns 0x00 (0000ms, 0336ms total)
T127C 000:886 JLINK_WriteReg(R7, 0x00000000)  returns 0x00 (0000ms, 0336ms total)
T127C 000:886 JLINK_WriteReg(R8, 0x00000000)  returns 0x00 (0000ms, 0336ms total)
T127C 000:886 JLINK_WriteReg(R9, 0x20000160)  returns 0x00 (0000ms, 0336ms total)
T127C 000:886 JLINK_WriteReg(R10, 0x00000000)  returns 0x00 (0000ms, 0336ms total)
T127C 000:886 JLINK_WriteReg(R11, 0x00000000)  returns 0x00 (0000ms, 0336ms total)
T127C 000:886 JLINK_WriteReg(R12, 0x00000000)  returns 0x00 (0000ms, 0336ms total)
T127C 000:886 JLINK_WriteReg(R13, 0x20000800)  returns 0x00 (0000ms, 0336ms total)
T127C 000:886 JLINK_WriteReg(R14, 0x20000001)  returns 0x00 (0000ms, 0336ms total)
T127C 000:886 JLINK_WriteReg(R15, 0x200000F4)  returns 0x00 (0000ms, 0336ms total)
T127C 000:886 JLINK_WriteReg(XPSR, 0x01000000)  returns 0x00 (0000ms, 0336ms total)
T127C 000:886 JLINK_WriteReg(MSP, 0x20000800)  returns 0x00 (0000ms, 0336ms total)
T127C 000:886 JLINK_WriteReg(PSP, 0x20000800)  returns 0x00 (0000ms, 0336ms total)
T127C 000:886 JLINK_WriteReg(CFBP, 0x00000000)  returns 0x00 (0000ms, 0336ms total)
T127C 000:886 JLINK_SetBPEx(Addr = 0x20000000, Type = 0xFFFFFFF2)  returns 0x0000000E (0000ms, 0336ms total)
T127C 000:886 JLINK_Go() (0002ms, 0338ms total)
T127C 000:888 JLINK_IsHalted()  returns FALSE (0001ms, 0339ms total)
T127C 000:895 JLINK_IsHalted()  returns FALSE (0000ms, 0338ms total)
T127C 000:896 JLINK_IsHalted()  returns FALSE (0000ms, 0338ms total)
T127C 000:897 JLINK_IsHalted()  returns FALSE (0000ms, 0338ms total)
T127C 000:898 JLINK_IsHalted()  returns FALSE (0000ms, 0338ms total)
T127C 000:899 JLINK_IsHalted()  returns FALSE (0000ms, 0338ms total)
T127C 000:904 JLINK_IsHalted()  returns FALSE (0000ms, 0338ms total)
T127C 000:905 JLINK_IsHalted()  returns FALSE (0000ms, 0338ms total)
T127C 000:906 JLINK_IsHalted()  returns FALSE (0000ms, 0338ms total)
T127C 000:907 JLINK_IsHalted()  returns FALSE (0000ms, 0338ms total)
T127C 000:908 JLINK_IsHalted()  returns FALSE (0000ms, 0338ms total)
T127C 000:909 JLINK_IsHalted()  returns FALSE (0000ms, 0338ms total)
T127C 000:910 JLINK_IsHalted()  returns FALSE (0000ms, 0338ms total)
T127C 000:911 JLINK_IsHalted()  returns FALSE (0000ms, 0338ms total)
T127C 000:912 JLINK_IsHalted()  returns FALSE (0000ms, 0338ms total)
T127C 000:913 JLINK_IsHalted()  returns FALSE (0000ms, 0338ms total)
T127C 000:914 JLINK_IsHalted()  returns FALSE (0000ms, 0338ms total)
T127C 000:915 JLINK_IsHalted()  returns FALSE (0000ms, 0338ms total)
T127C 000:927 JLINK_IsHalted() -- CPU_ReadMem(2 bytes @ 0x20000000)  returns TRUE (0004ms, 0342ms total)
T127C 000:931 JLINK_ReadReg(R15)  returns 0x20000000 (0000ms, 0338ms total)
T127C 000:931 JLINK_ClrBPEx(BPHandle = 0x0000000E)  returns 0x00 (0000ms, 0338ms total)
T127C 000:931 JLINK_ReadReg(R0)  returns 0x00000000 (0000ms, 0338ms total)
T127C 000:932 JLINK_WriteMem(0x20000164, 0x0400 Bytes, ...) -- Data:  22 49 08 70 08 46 00 78 60 B9 0A 48 00 78 28 B9 ... -- CPU_WriteMem(1024 bytes @ 0x20000164)  returns 0x400 (0012ms, 0350ms total)
T127C 000:944 JLINK_WriteReg(R0, 0x08002800)  returns 0x00 (0000ms, 0350ms total)
T127C 000:944 JLINK_WriteReg(R1, 0x00000400)  returns 0x00 (0000ms, 0350ms total)
T127C 000:944 JLINK_WriteReg(R2, 0x20000164)  returns 0x00 (0000ms, 0350ms total)
T127C 000:944 JLINK_WriteReg(R3, 0x00000000)  returns 0x00 (0000ms, 0350ms total)
T127C 000:944 JLINK_WriteReg(R4, 0x00000000)  returns 0x00 (0001ms, 0351ms total)
T127C 000:945 JLINK_WriteReg(R5, 0x00000000)  returns 0x00 (0000ms, 0351ms total)
T127C 000:945 JLINK_WriteReg(R6, 0x00000000)  returns 0x00 (0000ms, 0351ms total)
T127C 000:945 JLINK_WriteReg(R7, 0x00000000)  returns 0x00 (0000ms, 0351ms total)
T127C 000:945 JLINK_WriteReg(R8, 0x00000000)  returns 0x00 (0000ms, 0351ms total)
T127C 000:945 JLINK_WriteReg(R9, 0x20000160)  returns 0x00 (0000ms, 0351ms total)
T127C 000:945 JLINK_WriteReg(R10, 0x00000000)  returns 0x00 (0000ms, 0351ms total)
T127C 000:945 JLINK_WriteReg(R11, 0x00000000)  returns 0x00 (0000ms, 0351ms total)
T127C 000:945 JLINK_WriteReg(R12, 0x00000000)  returns 0x00 (0000ms, 0351ms total)
T127C 000:945 JLINK_WriteReg(R13, 0x20000800)  returns 0x00 (0000ms, 0351ms total)
T127C 000:945 JLINK_WriteReg(R14, 0x20000001)  returns 0x00 (0000ms, 0351ms total)
T127C 000:945 JLINK_WriteReg(R15, 0x200000F4)  returns 0x00 (0000ms, 0351ms total)
T127C 000:945 JLINK_WriteReg(XPSR, 0x01000000)  returns 0x00 (0000ms, 0351ms total)
T127C 000:945 JLINK_WriteReg(MSP, 0x20000800)  returns 0x00 (0000ms, 0351ms total)
T127C 000:945 JLINK_WriteReg(PSP, 0x20000800)  returns 0x00 (0000ms, 0351ms total)
T127C 000:945 JLINK_WriteReg(CFBP, 0x00000000)  returns 0x00 (0000ms, 0351ms total)
T127C 000:945 JLINK_SetBPEx(Addr = 0x20000000, Type = 0xFFFFFFF2)  returns 0x0000000F (0000ms, 0351ms total)
T127C 000:945 JLINK_Go() (0002ms, 0353ms total)
T127C 000:947 JLINK_IsHalted()  returns FALSE (0001ms, 0354ms total)
T127C 000:962 JLINK_IsHalted()  returns FALSE (0000ms, 0353ms total)
T127C 000:963 JLINK_IsHalted()  returns FALSE (0000ms, 0353ms total)
T127C 000:964 JLINK_IsHalted()  returns FALSE (0000ms, 0353ms total)
T127C 000:965 JLINK_IsHalted()  returns FALSE (0000ms, 0353ms total)
T127C 000:966 JLINK_IsHalted()  returns FALSE (0000ms, 0353ms total)
T127C 000:967 JLINK_IsHalted()  returns FALSE (0000ms, 0353ms total)
T127C 000:972 JLINK_IsHalted()  returns FALSE (0000ms, 0353ms total)
